
**** 04/03/13 23:06:13 ******** PSpice Lite (June 2009) ******* ID# 10813 ****

 ** Profile: "SCHEMATIC1-HW04 MOSFET"  [ C:\Users\kpapa01\Desktop\NYU POLY\SEMESTERS\NYU SPRING 13\EE3114 Fundamentals of Electronics


 ****     CIRCUIT DESCRIPTION


******************************************************************************




** Creating circuit file "HW04 MOSFET.cir" 
** WARNING: THIS AUTOMATICALLY GENERATED FILE MAY BE OVERWRITTEN BY SUBSEQUENT SIMULATIONS

*Libraries: 
* Profile Libraries :
* Local Libraries :
* From [PSPICE NETLIST] section of C:\OrCAD\OrCAD_16.3_Demo\tools\PSpice\PSpice.ini file:
.lib "nomd.lib" 

*Analysis directives: 
.TRAN  0 25msec 0 0.001msec 
.PROBE V(alias(*)) I(alias(*)) W(alias(*)) D(alias(*)) NOISE(alias(*)) 
.INC "..\SCHEMATIC1.net" 



**** INCLUDING SCHEMATIC1.net ****
* source HW04 MOSFET
X_Q1         N00301 N00258 0 0 awbvn2222 PARAMS:                               
+                 
V_V1         N00182 0  
+SIN 0 0.1mV 1k 0 0 0
R_R4         N00182 N00246  2k TC=0,0 
R_R2         N00258 N00307  100k TC=0,0 
R_R3         0 N00258  150k TC=0,0 
R_R1         N00301 N00307  8k TC=0,0 
R_R5         0 N00357  100000k TC=0,0 
C_C1         N00258 N00246 1000u TC=0
C_C2         N00357 N00301 1000u TC=0
V_V2         N00307 0 5Vdc

**** RESUMING "HW04 MOSFET.cir" ****
.END

**** 04/03/13 23:06:13 ******** PSpice Lite (June 2009) ******* ID# 10813 ****

 ** Profile: "SCHEMATIC1-HW04 MOSFET"  [ C:\Users\kpapa01\Desktop\NYU POLY\SEMESTERS\NYU SPRING 13\EE3114 Fundamentals of Electronics


 ****     MOSFET MODEL PARAMETERS


******************************************************************************




               X_Q1.model14    
               NMOS            
       LEVEL    2            
           L  100.000000E-06 
           W  100.000000E-06 
         VTO    2.6          
          KP     .12         
       GAMMA    0            
         PHI     .7          
      LAMBDA    1.000000E-03 
          RS    1            
          IS   10.000000E-15 
          JS    0            
          PB    1            
        PBSW    1            
         CBD  100.000000E-12 
          CJ    0            
        CJSW    0            
        CGSO    5.500000E-06 
        CGDO  500.000000E-09 
        CGBO    0            
         TOX  100.000000E-09 
          XJ    0            
       UCRIT   10.000000E+03 
      DIOMOD    1            
         VFB    0            
        LETA    0            
        WETA    0            
          U0    0            
        TEMP    0            
         VDD    5            
       XPART    0            


**** 04/03/13 23:06:13 ******** PSpice Lite (June 2009) ******* ID# 10813 ****

 ** Profile: "SCHEMATIC1-HW04 MOSFET"  [ C:\Users\kpapa01\Desktop\NYU POLY\SEMESTERS\NYU SPRING 13\EE3114 Fundamentals of Electronics


 ****     INITIAL TRANSIENT SOLUTION       TEMPERATURE =   27.000 DEG C


******************************************************************************



 NODE   VOLTAGE     NODE   VOLTAGE     NODE   VOLTAGE     NODE   VOLTAGE


(N00182)    0.0000 (N00246)    0.0000 (N00258)    3.0000 (N00301)     .0138     

(N00307)    5.0000 (N00357)    0.0000 




    VOLTAGE SOURCE CURRENTS
    NAME         CURRENT

    V_V1         0.000E+00
    V_V2        -6.433E-04

    TOTAL POWER DISSIPATION   3.22E-03  WATTS



          JOB CONCLUDED

**** 04/03/13 23:06:13 ******** PSpice Lite (June 2009) ******* ID# 10813 ****

 ** Profile: "SCHEMATIC1-HW04 MOSFET"  [ C:\Users\kpapa01\Desktop\NYU POLY\SEMESTERS\NYU SPRING 13\EE3114 Fundamentals of Electronics


 ****     JOB STATISTICS SUMMARY


******************************************************************************



  Total job time (using Solver 1)   =        2.03
